
T03D8 000:044 SEGGER J-Link V4.76d Log File (0002ms, 0045ms total)
T03D8 000:044 DLL Compiled: Sep 13 2013 16:35:06 (0002ms, 0045ms total)
T03D8 000:044 Logging started @ 2014-06-29 11:48 (0002ms, 0045ms total)
T03D8 000:046 JLINK_SetWarnOutHandler(...) (0000ms, 0045ms total)
T03D8 000:046 JLINK_OpenEx(...)
Firmware: J-Link Lite-LPC Rev.1 compiled Oct 20 2009 15:04:35
Hardware: V6.05
S/N: 211300469  returns O.K. (0026ms, 0071ms total)
T03D8 000:072 JLINK_SetErrorOutHandler(...) (0000ms, 0071ms total)
T03D8 000:072 JLINK_ExecCommand("ProjectFile = "C:\Users\Enrico\uEZ_v2.06_SourceForge\uEZDemo\Build\FDI\DK-TS-KIT\DK-TS-LPC1788\FDIDemo\Keil4\JLinkSettings.ini"", ...)  returns 0x00 (0001ms, 0072ms total)
T03D8 000:073 JLINK_ExecCommand("Device = LPC1778", ...)
                JLINK_AddMirrorAreaEx(Addr = 0x00000000, Size = 0x00000000) (0000ms, 0000ms total)
              Device "LPC1778" selected (512 KB flash, 64 KB RAM).  returns 0x00 (0002ms, 0074ms total)
T03D8 000:075 JLINK_ExecCommand("DisableConnectionTimeout", ...)  returns 0x01 (0000ms, 0074ms total)
T03D8 000:075 JLINK_GetHardwareVersion()  returns 0xECA0 (0000ms, 0074ms total)
T03D8 000:075 JLINK_GetDLLVersion()  returns 47604 (0000ms, 0074ms total)
T03D8 000:075 JLINK_GetFirmwareString(...) (0001ms, 0075ms total)
T03D8 000:076 JLINK_GetDLLVersion()  returns 47604 (0000ms, 0075ms total)
T03D8 000:076 JLINK_GetCompileDateTime() (0000ms, 0075ms total)
T03D8 000:076 JLINK_GetFirmwareString(...) (0000ms, 0075ms total)
T03D8 000:076 JLINK_GetHardwareVersion()  returns 0xECA0 (0001ms, 0076ms total)
T03D8 000:077 JLINK_TIF_Select(JLINKARM_TIF_JTAG)  returns 0x00 (0000ms, 0076ms total)
T03D8 000:077 JLINK_SetSpeed(2000) (0001ms, 0077ms total)
T03D8 000:078 JLINK_GetIdData(...)J-Link init for LPC1788 with EXP1 >0x2B0 JTAG>TotalIRLen = 4, IRPrint = 0x01 >0x30 JTAG> >0x210 JTAG> >0x2F8 JTAG>TotalIRLen = 4, IRPrint = 0x01 >0x30 JTAG> >0x210 JTAG> >0x78 JTAG> >0x40 JTAG> >0x30 JTAG> >0x40 JTAG> >0x40 JTAG> >0x30 JTAG> >0x40 JTAG> >0x48 JTAG>Found Cortex-M3 r2p0, Little endian. >0x1D0 JTAG> >0x1D8 JTAG> >0x1D8 JTAG>FPUnit: 6 code (BP) slots and 2 literal slots >0x1D8 JTAG> >0x1D8 JTAG> >0x1D0 JTAG> >0x1D8 JTAG>TPIU fitted. >0x1D8 JTAG>ETM fitted.
 >0x1D8 JTAG> ScanLen=4 NumDevices=1 aId[0]=0x4BA00477 aIrRead[0]=0 aScanLen[0]=0 aScanRead[0]=0 (0264ms, 0341ms total)
T03D8 000:342 JLINK_JTAG_GetDeviceID(DeviceIndex = 0)  returns 0x4BA00477 (0000ms, 0341ms total)
T03D8 000:342 JLINK_JTAG_GetDeviceInfo(DeviceIndex = 0)  returns 0x00 (0000ms, 0341ms total)
T03D8 000:342 JLINK_GetDeviceFamily()  returns 3 (0000ms, 0341ms total)
T03D8 000:342 JLINK_ReadMem (0xE00FFFF0, 0x0010 Bytes, ...) -- CPU is running >0x288 JTAG> -- Data:  0D 00 00 00 10 00 00 00 05 00 00 00 B1 00 00 00  returns 0x00 (0004ms, 0345ms total)
T03D8 000:346 JLINK_ReadMem (0xE00FFFD0, 0x0020 Bytes, ...) -- CPU is running >0x370 JTAG> -- Data:  00 00 00 00 00 00 00 00 00 00 00 00 00 00 00 00 ...  returns 0x00 (0003ms, 0348ms total)
T03D8 000:349 JLINK_ReadMem (0xE00FF000, 0x0018 Bytes, ...) -- CPU is running >0x2F8 JTAG> -- Data:  03 F0 F0 FF 03 20 F0 FF 03 30 F0 FF 03 10 F0 FF ...  returns 0x00 (0003ms, 0351ms total)
T03D8 000:352 JLINK_ReadMemU32(0xE000ED00, 0x0001 Items, ...) -- CPU is running >0x1D8 JTAG> -- Data:  30 C2 2F 41  returns 0x01 (0003ms, 0354ms total)
T03D8 000:355 JLINK_Halt() >0x218 JTAG> >0x170 JTAG> >0x1598 JTAG>  returns 0x00 (0014ms, 0368ms total)
T03D8 000:369 JLINK_IsHalted()
                JLINK_ReadMemHW(0x400FC040, 0x0004 Bytes, ...) >0x1D8 JTAG> -- Data:  01 00 00 00  returns 0x00 (0003ms, 0003ms total)
               -- MA0 is in flash -- Unmirror addr 0x00002CDC  returns TRUE (0003ms, 0371ms total)
T03D8 000:372 JLINK_ReadMemU32(0xE000EDF0, 0x0001 Items, ...) >0x1D8 JTAG> -- Data:  03 00 03 00  returns 0x01 (0003ms, 0371ms total)
T03D8 000:375 JLINK_WriteU32(0xE000EDF0, 0xA05F0003) >0x1D0 JTAG> -- Invalidate MA0 status  returns 0x00 (0003ms, 0374ms total)
T03D8 000:378 JLINK_WriteU32(0xE000EDFC, 0x01000000) >0x1D0 JTAG>  returns 0x00 (0003ms, 0377ms total)
T03D8 000:381 JLINK_GetHWStatus(...)  returns 0x00 (0002ms, 0379ms total)
T03D8 000:383 JLINK_GetNumBPUnits(Type = 0xFFFFFF00)  returns 0x06 (0000ms, 0379ms total)
T03D8 000:383 JLINK_GetNumBPUnits(Type = 0xF0)  returns 0x2000 (0000ms, 0379ms total)
T03D8 000:383 JLINK_GetNumWPUnits()  returns 0x04 (0000ms, 0379ms total)
T03D8 000:384 JLINK_GetSpeed()  returns 0x7D0 (0000ms, 0379ms total)
T03D8 000:384 JLINK_ReadMemU32(0xE000E004, 0x0001 Items, ...) >0x1D8 JTAG> -- Data:  01 00 00 00  returns 0x01 (0003ms, 0382ms total)
T03D8 000:387 JLINK_ReadMemU32(0xE000E004, 0x0001 Items, ...) >0x1D8 JTAG> -- Data:  01 00 00 00  returns 0x01 (0003ms, 0385ms total)
T03D8 000:390 JLINK_WriteMem(0xE0001000, 0x001C Bytes, ...) -- Data:  01 00 00 00 00 00 00 00 00 00 00 00 00 00 00 00 ... >0x2F0 JTAG>  returns 0x1C (0003ms, 0388ms total)
T03D8 000:393 JLINK_ReadMem (0xE0001000, 0x001C Bytes, ...) >0x338 JTAG> -- Data:  01 00 00 40 00 00 00 00 00 00 00 00 00 00 00 00 ...  returns 0x00 (0003ms, 0391ms total)
T03D8 000:396 JLINK_ReadReg(R15 (PC))  returns 0x00002CDC (0000ms, 0391ms total)
T03D8 000:396 JLINK_ReadReg(XPSR)  returns 0x81000000 (0000ms, 0391ms total)
T03D8 000:404 JLINK_WriteU8(0x400FC040, 0x01) >0x1D0 JTAG>  returns 0x00 (0003ms, 0394ms total)
T03D8 000:868 JLINK_SetResetType(JLINKARM_RESET_TYPE_SAM7)  returns JLINKARM_RESET_TYPE_HALT_WP (0000ms, 0394ms total)
T03D8 000:868 JLINK_Reset() >0x78 JTAG> >0x40 JTAG> >0x30 JTAG> >0x40 JTAG> >0x40 JTAG> >0x30 JTAG> >0x40 JTAG> >0x48 JTAG>Found Cortex-M3 r2p0, Little endian. >0x1D0 JTAG> >0x1D0 JTAG> >0x208 JTAG> >0x1D8 JTAG> >0x1D8 JTAG> >0x1D0 JTAG> >0x1D0 JTAG> -- CPU is running >0x1D8 JTAG> >0x170 JTAG> >0x1598 JTAG> >0x40 JTAG> >0x40 JTAG> >0x30 JTAG> >0x40 JTAG> >0x48 JTAG> >0x40 JTAG> >0x1D0 JTAG> >0x1D0 JTAG> >0x1D0 JTAG> >0x1D0 JTAG> >0x1D0 JTAG> >0x1D0 JTAG> (0088ms, 0482ms total)
T03D8 000:957 JLINK_ReadReg(R15 (PC))  returns 0x1FFF0080 (0000ms, 0482ms total)
T03D8 000:957 JLINK_ReadReg(XPSR)  returns 0x01000000 (0000ms, 0482ms total)
T03D8 000:957 JLINK_ReadMem (0x1FFF0080, 0x003C Bytes, ...) >0x510 JTAG> -- Data:  DF F8 18 40 DF F8 10 50 26 68 05 EA 06 06 26 60 ...  returns 0x00 (0004ms, 0486ms total)
T0D74 002:499 JLINK_SetBPEx(Addr = 0x00003B82, Type = 0xFFFFFFF2)
                JLINK_ReadMemHW(0x400FC040, 0x0004 Bytes, ...) >0x1D8 JTAG> -- Data:  00 00 00 00  returns 0x00 (0003ms, 0003ms total)
               -- MA0 is in flash -- Unmirror addr 0x00003B82  returns 0x00000001 (0001ms, 0491ms total)
T0D74 004:398 JLINK_SetBPEx(Addr = 0x00001D24, Type = 0xFFFFFFF2) -- Unmirror addr 0x00001D24 -- Unmirror addr 0x00003B82  returns 0x00000002 (0001ms, 0492ms total)
T0D74 004:400 JLINK_Go() >0x170 JTAG> -- Unmirror addr 0x00003B82 -- Unmirror addr 0x00001D24 >0x1D8 JTAG> >0x1D8 JTAG> -- Not simulated >0xED98 JTAG> -- Updating CM cache (4096 bytes @ 0x00001000) -- Read from CM cache (4096 bytes @ 0x00001000) -- Updating flash cache (4096 bytes @ 0x00001000) -- Programming range 0x00001000 - 0x00001FFF (  1 Sector, 4 KB) -- CPU clock frequency: 11673 kHz -- MA0 is in flash -- CPU is running >0xED98 JTAG> -- Updating flash cache (4096 bytes @ 0x00003000)
 -- Programming range 0x00003000 - 0x00003FFF (  1 Sector, 4 KB) >0x2C8 JTAG> >0x1E8 JTAG> >0x1E8 JTAG> >0x1E8 JTAG> >0x1E8 JTAG> >0x1E8 JTAG> >0x1E8 JTAG> >0x1E8 JTAG> >0x1E8 JTAG> >0x1E8 JTAG> >0x1E8 JTAG> >0x218 JTAG> >0x218 JTAG> (1144ms, 1637ms total)
T0D74 005:644 JLINK_IsHalted() >0x170 JTAG>  returns FALSE (0003ms, 1640ms total)
T0D74 005:747 JLINK_IsHalted() >0x170 JTAG>  returns FALSE (0002ms, 1639ms total)
T0D74 005:849 JLINK_IsHalted() >0x170 JTAG>  returns FALSE (0003ms, 1640ms total)
T0D74 005:952 JLINK_IsHalted() >0x170 JTAG> >0x1598 JTAG>
                JLINK_ReadMemHW(0x400FC040, 0x0004 Bytes, ...) >0x1D8 JTAG> -- Data:  01 00 00 00  returns 0x00 (0003ms, 0003ms total)
               -- MA0 is in flash -- Unmirror addr 0x00003B82 -- Unmirror addr 0x00003B82 -- Unmirror addr 0x00003B82 -- Unmirror addr 0x00003B82  returns TRUE (0013ms, 1650ms total)
T0D74 005:965 JLINK_Halt()  returns 0x00 (0000ms, 1637ms total)
T0D74 005:965 JLINK_IsHalted() -- Unmirror addr 0x00003B82 -- Unmirror addr 0x00003B82  returns TRUE (0000ms, 1637ms total)
T0D74 005:965 JLINK_IsHalted() -- Unmirror addr 0x00003B82 -- Unmirror addr 0x00003B82  returns TRUE (0000ms, 1637ms total)
T0D74 005:965 JLINK_IsHalted() -- Unmirror addr 0x00003B82 -- Unmirror addr 0x00003B82  returns TRUE (0000ms, 1637ms total)
T0D74 005:965 JLINK_ReadReg(R15 (PC))  returns 0x00003B82 (0000ms, 1637ms total)
T0D74 005:965 JLINK_ReadReg(XPSR)  returns 0x61000000 (0000ms, 1637ms total)
T0D74 005:965 JLINK_ClrBPEx(BPHandle = 0x00000001)  returns 0x00 (0000ms, 1637ms total)
T0D74 005:965 JLINK_ClrBPEx(BPHandle = 0x00000002)  returns 0x00 (0001ms, 1638ms total)
T0D74 005:966 JLINK_ReadMemU32(0xE000ED30, 0x0001 Items, ...) >0x1D8 JTAG> -- Data:  0B 00 00 00  returns 0x01 (0002ms, 1640ms total)
T0D74 005:968 JLINK_ReadMemU32(0xE0001028, 0x0001 Items, ...) >0x1D8 JTAG> -- Data:  00 00 00 00  returns 0x01 (0003ms, 1643ms total)
T0D74 005:971 JLINK_ReadMemU32(0xE0001038, 0x0001 Items, ...) >0x1D8 JTAG> -- Data:  00 02 00 00  returns 0x01 (0003ms, 1646ms total)
T0D74 005:974 JLINK_ReadMemU32(0xE0001048, 0x0001 Items, ...) >0x1D8 JTAG> -- Data:  00 00 00 00  returns 0x01 (0003ms, 1649ms total)
T0D74 005:977 JLINK_ReadMemU32(0xE0001058, 0x0001 Items, ...) >0x1D8 JTAG> -- Data:  00 00 00 00  returns 0x01 (0003ms, 1652ms total)
T0D74 005:981 JLINK_ReadReg(R0)  returns 0x00003B83 (0000ms, 1652ms total)
T0D74 005:981 JLINK_ReadReg(R1)  returns 0x10005EC4 (0000ms, 1652ms total)
T0D74 005:981 JLINK_ReadReg(R2)  returns 0x00000000 (0000ms, 1652ms total)
T0D74 005:981 JLINK_ReadReg(R3)  returns 0x00044053 (0000ms, 1652ms total)
T0D74 005:981 JLINK_ReadReg(R4)  returns 0x00053048 (0000ms, 1652ms total)
T0D74 005:982 JLINK_ReadReg(R5)  returns 0x00053048 (0000ms, 1652ms total)
T0D74 005:982 JLINK_ReadReg(R6)  returns 0x12345678 (0000ms, 1652ms total)
T0D74 005:982 JLINK_ReadReg(R7)  returns 0x00000000 (0000ms, 1652ms total)
T0D74 005:982 JLINK_ReadReg(R8)  returns 0x00000000 (0000ms, 1652ms total)
T0D74 005:982 JLINK_ReadReg(R9)  returns 0x100001DC (0000ms, 1652ms total)
T0D74 005:982 JLINK_ReadReg(R10)  returns 0x00000000 (0000ms, 1652ms total)
T0D74 005:982 JLINK_ReadReg(R11)  returns 0x00000000 (0000ms, 1652ms total)
T0D74 005:982 JLINK_ReadReg(R12)  returns 0x00000000 (0000ms, 1652ms total)
T0D74 005:982 JLINK_ReadReg(R13 (SP))  returns 0x100011E0 (0001ms, 1653ms total)
T0D74 005:983 JLINK_ReadReg(R14)  returns 0x00043BC5 (0000ms, 1653ms total)
T0D74 005:983 JLINK_ReadReg(R15 (PC))  returns 0x00003B82 (0000ms, 1653ms total)
T0D74 005:983 JLINK_ReadReg(XPSR)  returns 0x61000000 (0000ms, 1653ms total)
T0D74 005:983 JLINK_ReadReg(MSP)  returns 0x100011E0 (0000ms, 1653ms total)
T0D74 005:983 JLINK_ReadReg(PSP)  returns 0x10000800 (0000ms, 1653ms total)
T0D74 005:983 JLINK_ReadReg(CFBP)  returns 0x00000000 (0000ms, 1653ms total)
T03D8 005:997 JLINK_ReadMemU32(0xE0001004, 0x0001 Items, ...) >0x1D8 JTAG> -- Data:  2A 64 F6 02  returns 0x01 (0003ms, 1656ms total)
T03D8 006:004 JLINK_ReadMem (0x00003B82, 0x0002 Bytes, ...) -- Unmirror addr 0x00003B82 -- Merging zombie BP[0]: 0xF015 @ 0x00003B82 -- Merging zombie BP[0]: 0xF015 @ 0x00003B82 -- Data:  15 F0  returns 0x00 (0000ms, 1656ms total)
T03D8 006:004 JLINK_ReadMem (0x00003B84, 0x003C Bytes, ...) -- Unmirror addr 0x00003B84 -- Read from flash cache (60 bytes @ 0x00003B84) -- Data:  C3 F8 FE E7 01 07 C9 0E 41 EA D0 10 70 47 28 48 ...  returns 0x00 (0001ms, 1657ms total)
T0D74 007:528 JLINK_SetBPEx(Addr = 0x00001D24, Type = 0xFFFFFFF2) -- Unmirror addr 0x00001D24 -- Unmirror addr 0x00003B82 -- Unmirror addr 0x00001D24  returns 0x00000003 (0001ms, 1658ms total)
T0D74 007:529 JLINK_Go() >0x170 JTAG> -- Unmirror addr 0x00003B82 -- Unmirror addr 0x00003B82 -- Unmirror addr 0x00003B82 -- Merging zombie BP[0]: 0xF015 @ 0x00003B82 -- Merging zombie BP[0]: 0xF015 @ 0x00003B82 -- Unmirror addr 0x00003B84 -- Read from flash cache (2 bytes @ 0x00003B84) -- Simulated -- Unmirror addr 0x00018D0C -- Unmirror addr 0x00003B82 -- Unmirror addr 0x00001D24 -- Unmirror addr 0x00018D0C >0x548 JTAG> -- Updating CM cache (64 bytes @ 0x00018D00)
 -- Read from CM cache (2 bytes @ 0x00018D0C) >0x260 JTAG> -- Simulated -- Unmirror addr 0x00018D0E -- Unmirror addr 0x00003B82 -- Unmirror addr 0x00001D24 -- Unmirror addr 0x00018D0E >0x548 JTAG> -- Updating CM cache (64 bytes @ 0x00018D00) -- Read from CM cache (2 bytes @ 0x00018D0E) -- Unmirror addr 0x00018D10 -- Read from CM cache (2 bytes @ 0x00018D10) -- Simulated -- Unmirror addr 0x00002D1A -- Unmirror addr 0x00003B82 -- Unmirror addr 0x00001D24 -- Unmirror addr 0x00002D1A >0x548 JTAG>
 -- Updating CM cache (64 bytes @ 0x00002D00) -- Read from CM cache (2 bytes @ 0x00002D1A) -- Unmirror addr 0x00002D1C -- Read from CM cache (2 bytes @ 0x00002D1C) -- Simulated -- Unmirror addr 0x00013B22 -- Unmirror addr 0x00003B82 -- Unmirror addr 0x00001D24 -- Unmirror addr 0x00013B22 >0x548 JTAG> -- Updating CM cache (64 bytes @ 0x00013B00) -- Read from CM cache (2 bytes @ 0x00013B22) >0x200 JTAG> -- Simulated -- Unmirror addr 0x00013B24 -- Unmirror addr 0x00003B82 -- Unmirror addr 0x00001D24
 -- Unmirror addr 0x00013B24 >0x548 JTAG> -- Updating CM cache (64 bytes @ 0x00013B00) -- Read from CM cache (2 bytes @ 0x00013B24) -- Simulated -- Unmirror addr 0x00013B26 -- Unmirror addr 0x00003B82 -- Unmirror addr 0x00001D24 -- Unmirror addr 0x00013B26 -- Read from CM cache (2 bytes @ 0x00013B26) -- Simulated -- Unmirror addr 0x00013B32 -- Unmirror addr 0x00003B82 -- Unmirror addr 0x00001D24 -- Unmirror addr 0x00013B32 -- Read from CM cache (2 bytes @ 0x00013B32) -- Simulated
 -- Unmirror addr 0x00013B34 -- Unmirror addr 0x00003B82 -- Unmirror addr 0x00001D24 -- Unmirror addr 0x00013B34 -- Read from CM cache (2 bytes @ 0x00013B34) -- Simulated -- Unmirror addr 0x00013B28 -- Unmirror addr 0x00003B82 -- Unmirror addr 0x00001D24 -- Unmirror addr 0x00013B28 -- Read from CM cache (2 bytes @ 0x00013B28) -- Simulated -- Unmirror addr 0x00013B2A -- Unmirror addr 0x00003B82 -- Unmirror addr 0x00001D24 -- Read from flash cache (4096 bytes @ 0x00003000)
 -- Programming range 0x00003000 - 0x00003FFF (  1 Sector, 4 KB) -- CPU clock frequency: 116415 kHz >0x2C8 JTAG> >0x1E8 JTAG> >0x1E8 JTAG> >0x1E8 JTAG> >0x1E8 JTAG> >0x1E8 JTAG> >0x1E8 JTAG> >0x1E8 JTAG> >0x1E8 JTAG> >0x1E8 JTAG> >0x1E8 JTAG> >0x218 JTAG> >0x218 JTAG> (0825ms, 2483ms total)
T0D74 008:454 JLINK_IsHalted() >0x170 JTAG>  returns FALSE (0003ms, 2486ms total)
T0D74 008:557 JLINK_IsHalted() >0x170 JTAG>  returns FALSE (0003ms, 2486ms total)
T0D74 008:660 JLINK_IsHalted() >0x170 JTAG>  returns FALSE (0003ms, 2486ms total)
T0D74 008:763 JLINK_IsHalted() >0x170 JTAG> >0x1598 JTAG>
                JLINK_ReadMemHW(0x400FC040, 0x0004 Bytes, ...) >0x1D8 JTAG> -- Data:  01 00 00 00  returns 0x00 (0003ms, 0003ms total)
               -- MA0 is in flash -- Unmirror addr 0x00001D24 -- Unmirror addr 0x00001D24 -- Unmirror addr 0x00001D24 -- Unmirror addr 0x00001D24  returns TRUE (0014ms, 2497ms total)
T0D74 008:777 JLINK_Halt()  returns 0x00 (0000ms, 2483ms total)
T0D74 008:777 JLINK_IsHalted() -- Unmirror addr 0x00001D24 -- Unmirror addr 0x00001D24  returns TRUE (0000ms, 2483ms total)
T0D74 008:777 JLINK_IsHalted() -- Unmirror addr 0x00001D24 -- Unmirror addr 0x00001D24  returns TRUE (0000ms, 2483ms total)
T0D74 008:777 JLINK_IsHalted() -- Unmirror addr 0x00001D24 -- Unmirror addr 0x00001D24  returns TRUE (0000ms, 2483ms total)
T0D74 008:778 JLINK_ReadReg(R15 (PC))  returns 0x00001D24 (0000ms, 2483ms total)
T0D74 008:778 JLINK_ReadReg(XPSR)  returns 0x21000000 (0000ms, 2483ms total)
T0D74 008:778 JLINK_ClrBPEx(BPHandle = 0x00000003)  returns 0x00 (0000ms, 2483ms total)
T0D74 008:778 JLINK_ReadMemU32(0xE000ED30, 0x0001 Items, ...) >0x1D8 JTAG> -- Data:  0B 00 00 00  returns 0x01 (0003ms, 2486ms total)
T0D74 008:781 JLINK_ReadMemU32(0xE0001028, 0x0001 Items, ...) >0x1D8 JTAG> -- Data:  00 00 00 00  returns 0x01 (0003ms, 2489ms total)
T0D74 008:784 JLINK_ReadMemU32(0xE0001038, 0x0001 Items, ...) >0x1D8 JTAG> -- Data:  00 02 00 00  returns 0x01 (0003ms, 2492ms total)
T0D74 008:787 JLINK_ReadMemU32(0xE0001048, 0x0001 Items, ...) >0x1D8 JTAG> -- Data:  00 00 00 00  returns 0x01 (0003ms, 2495ms total)
T0D74 008:790 JLINK_ReadMemU32(0xE0001058, 0x0001 Items, ...) >0x1D8 JTAG> -- Data:  00 00 00 00  returns 0x01 (0002ms, 2497ms total)
T0D74 008:793 JLINK_ReadReg(R0)  returns 0x0000004D (0000ms, 2497ms total)
T0D74 008:793 JLINK_ReadReg(R1)  returns 0x00000000 (0000ms, 2497ms total)
T0D74 008:793 JLINK_ReadReg(R2)  returns 0x00001D25 (0000ms, 2497ms total)
T0D74 008:793 JLINK_ReadReg(R3)  returns 0x00000000 (0000ms, 2497ms total)
T0D74 008:793 JLINK_ReadReg(R4)  returns 0x0000004D (0000ms, 2497ms total)
T0D74 008:794 JLINK_ReadReg(R5)  returns 0x0000004D (0000ms, 2497ms total)
T0D74 008:794 JLINK_ReadReg(R6)  returns 0xA5A5A5A5 (0000ms, 2497ms total)
T0D74 008:794 JLINK_ReadReg(R7)  returns 0xA5A5A5A5 (0000ms, 2497ms total)
T0D74 008:794 JLINK_ReadReg(R8)  returns 0xA5A5A5A5 (0000ms, 2497ms total)
T0D74 008:794 JLINK_ReadReg(R9)  returns 0xA5A5A5A5 (0000ms, 2497ms total)
T0D74 008:794 JLINK_ReadReg(R10)  returns 0xA5A5A5A5 (0000ms, 2497ms total)
T0D74 008:794 JLINK_ReadReg(R11)  returns 0xA5A5A5A5 (0000ms, 2497ms total)
T0D74 008:794 JLINK_ReadReg(R12)  returns 0xA5A5A5A5 (0000ms, 2497ms total)
T0D74 008:794 JLINK_ReadReg(R13 (SP))  returns 0xA078EEA0 (0001ms, 2498ms total)
T0D74 008:795 JLINK_ReadReg(R14)  returns 0x00018079 (0000ms, 2498ms total)
T0D74 008:795 JLINK_ReadReg(R15 (PC))  returns 0x00001D24 (0000ms, 2498ms total)
T0D74 008:795 JLINK_ReadReg(XPSR)  returns 0x21000000 (0000ms, 2498ms total)
T0D74 008:795 JLINK_ReadReg(MSP)  returns 0x100011C0 (0000ms, 2498ms total)
T0D74 008:795 JLINK_ReadReg(PSP)  returns 0xA078EEA0 (0000ms, 2498ms total)
T0D74 008:795 JLINK_ReadReg(CFBP)  returns 0x02000000 (0000ms, 2498ms total)
T03D8 008:803 JLINK_ReadMem (0xA078EEAC, 0x0004 Bytes, ...) >0x1D8 JTAG> -- Data:  00 00 00 00  returns 0x00 (0003ms, 2501ms total)
T03D8 008:819 JLINK_ReadMemU32(0xE0001004, 0x0001 Items, ...) >0x1D8 JTAG> -- Data:  78 AA 4A 07  returns 0x01 (0003ms, 2504ms total)
T0D74 012:432 JLINK_ReadMem (0x00001D24, 0x003C Bytes, ...) -- Unmirror addr 0x00001D24 -- Read from flash cache (60 bytes @ 0x00001D24) -- Merging zombie BP[0]: 0xB508 @ 0x00001D24 -- Data:  08 B5 00 20 00 90 00 F0 76 FB 30 B1 25 A0 42 F0 ...  returns 0x00 (0003ms, 2507ms total)
T0D74 012:435 JLINK_Step() >0x170 JTAG> -- Unmirror addr 0x00001D24 -- Merging zombie BP[0]: 0xB508 @ 0x00001D24 -- Merging zombie BP[0]: 0xB508 @ 0x00001D24 >0x200 JTAG> -- Simulated  returns 0x00 (0008ms, 2515ms total)
T0D74 012:443 JLINK_ReadReg(R15 (PC))  returns 0x00001D26 (0000ms, 2515ms total)
T0D74 012:443 JLINK_ReadReg(XPSR)  returns 0x21000000 (0000ms, 2515ms total)
T0D74 012:445 JLINK_ReadReg(R0)  returns 0x0000004D (0000ms, 2515ms total)
T0D74 012:445 JLINK_ReadReg(R1)  returns 0x00000000 (0000ms, 2515ms total)
T0D74 012:445 JLINK_ReadReg(R2)  returns 0x00001D25 (0000ms, 2515ms total)
T0D74 012:445 JLINK_ReadReg(R3)  returns 0x00000000 (0000ms, 2515ms total)
T0D74 012:445 JLINK_ReadReg(R4)  returns 0x0000004D (0001ms, 2516ms total)
T0D74 012:446 JLINK_ReadReg(R5)  returns 0x0000004D (0000ms, 2516ms total)
T0D74 012:446 JLINK_ReadReg(R6)  returns 0xA5A5A5A5 (0000ms, 2516ms total)
T0D74 012:446 JLINK_ReadReg(R7)  returns 0xA5A5A5A5 (0000ms, 2516ms total)
T0D74 012:446 JLINK_ReadReg(R8)  returns 0xA5A5A5A5 (0000ms, 2516ms total)
T0D74 012:446 JLINK_ReadReg(R9)  returns 0xA5A5A5A5 (0000ms, 2516ms total)
T0D74 012:446 JLINK_ReadReg(R10)  returns 0xA5A5A5A5 (0000ms, 2516ms total)
T0D74 012:446 JLINK_ReadReg(R11)  returns 0xA5A5A5A5 (0000ms, 2516ms total)
T0D74 012:446 JLINK_ReadReg(R12)  returns 0xA5A5A5A5 (0001ms, 2517ms total)
T0D74 012:447 JLINK_ReadReg(R13 (SP))  returns 0xA078EE98 (0000ms, 2517ms total)
T0D74 012:447 JLINK_ReadReg(R14)  returns 0x00018079 (0000ms, 2517ms total)
T0D74 012:447 JLINK_ReadReg(R15 (PC))  returns 0x00001D26 (0000ms, 2517ms total)
T0D74 012:447 JLINK_ReadReg(XPSR)  returns 0x21000000 (0000ms, 2517ms total)
T0D74 012:447 JLINK_ReadReg(MSP)  returns 0x100011C0 (0000ms, 2517ms total)
T0D74 012:447 JLINK_ReadReg(PSP)  returns 0xA078EE98 (0000ms, 2517ms total)
T0D74 012:447 JLINK_ReadReg(CFBP)  returns 0x02000000 (0000ms, 2517ms total)
T03D8 012:454 JLINK_ReadMem (0xA078EE9C, 0x0004 Bytes, ...) >0x1D8 JTAG> -- Data:  79 80 01 00  returns 0x00 (0003ms, 2520ms total)
T03D8 012:457 JLINK_ReadMem (0xA078EEAC, 0x0004 Bytes, ...) >0x1D8 JTAG> -- Data:  00 00 00 00  returns 0x00 (0003ms, 2523ms total)
T03D8 012:460 JLINK_ReadMemU32(0xE0001004, 0x0001 Items, ...) -- Data:  78 AA 4A 07  returns 0x01 (0000ms, 2523ms total)
T0D74 013:369 JLINK_ReadMem (0x00001D26, 0x0002 Bytes, ...) -- Unmirror addr 0x00001D26 -- Read from flash cache (2 bytes @ 0x00001D26) -- Data:  00 20  returns 0x00 (0000ms, 2523ms total)
T0D74 013:369 JLINK_ReadMem (0x00001D28, 0x003C Bytes, ...) -- Unmirror addr 0x00001D28 -- Read from flash cache (60 bytes @ 0x00001D28) -- Data:  00 90 00 F0 76 FB 30 B1 25 A0 42 F0 5F F9 00 F0 ...  returns 0x00 (0000ms, 2523ms total)
T0D74 013:369 JLINK_Step() >0x170 JTAG> -- Unmirror addr 0x00001D26 -- Read from flash cache (2 bytes @ 0x00001D26) -- Simulated  returns 0x00 (0003ms, 2526ms total)
T0D74 013:372 JLINK_ReadReg(R15 (PC))  returns 0x00001D28 (0000ms, 2526ms total)
T0D74 013:372 JLINK_ReadReg(XPSR)  returns 0x61000000 (0000ms, 2526ms total)
T0D74 013:374 JLINK_ReadReg(R0)  returns 0x00000000 (0000ms, 2526ms total)
T0D74 013:374 JLINK_ReadReg(R1)  returns 0x00000000 (0000ms, 2526ms total)
T0D74 013:374 JLINK_ReadReg(R2)  returns 0x00001D25 (0000ms, 2526ms total)
T0D74 013:374 JLINK_ReadReg(R3)  returns 0x00000000 (0000ms, 2526ms total)
T0D74 013:374 JLINK_ReadReg(R4)  returns 0x0000004D (0000ms, 2526ms total)
T0D74 013:374 JLINK_ReadReg(R5)  returns 0x0000004D (0000ms, 2526ms total)
T0D74 013:374 JLINK_ReadReg(R6)  returns 0xA5A5A5A5 (0000ms, 2526ms total)
T0D74 013:374 JLINK_ReadReg(R7)  returns 0xA5A5A5A5 (0001ms, 2527ms total)
T0D74 013:375 JLINK_ReadReg(R8)  returns 0xA5A5A5A5 (0000ms, 2527ms total)
T0D74 013:375 JLINK_ReadReg(R9)  returns 0xA5A5A5A5 (0000ms, 2527ms total)
T0D74 013:376 JLINK_ReadReg(R10)  returns 0xA5A5A5A5 (0000ms, 2528ms total)
T0D74 013:376 JLINK_ReadReg(R11)  returns 0xA5A5A5A5 (0000ms, 2528ms total)
T0D74 013:376 JLINK_ReadReg(R12)  returns 0xA5A5A5A5 (0000ms, 2528ms total)
T0D74 013:376 JLINK_ReadReg(R13 (SP))  returns 0xA078EE98 (0001ms, 2529ms total)
T0D74 013:377 JLINK_ReadReg(R14)  returns 0x00018079 (0000ms, 2529ms total)
T0D74 013:377 JLINK_ReadReg(R15 (PC))  returns 0x00001D28 (0000ms, 2529ms total)
T0D74 013:377 JLINK_ReadReg(XPSR)  returns 0x61000000 (0000ms, 2529ms total)
T0D74 013:377 JLINK_ReadReg(MSP)  returns 0x100011C0 (0000ms, 2529ms total)
T0D74 013:377 JLINK_ReadReg(PSP)  returns 0xA078EE98 (0000ms, 2529ms total)
T0D74 013:377 JLINK_ReadReg(CFBP)  returns 0x02000000 (0000ms, 2529ms total)
T03D8 013:385 JLINK_ReadMem (0xA078EE9C, 0x0004 Bytes, ...) >0x1D8 JTAG> -- Data:  79 80 01 00  returns 0x00 (0003ms, 2532ms total)
T03D8 013:388 JLINK_ReadMem (0xA078EEAC, 0x0004 Bytes, ...) >0x1D8 JTAG> -- Data:  00 00 00 00  returns 0x00 (0003ms, 2535ms total)
T03D8 013:391 JLINK_ReadMemU32(0xE0001004, 0x0001 Items, ...) -- Data:  78 AA 4A 07  returns 0x01 (0000ms, 2535ms total)
T03D8 013:397 JLINK_ReadMem (0x00001D28, 0x003C Bytes, ...) -- Unmirror addr 0x00001D28 -- Read from flash cache (60 bytes @ 0x00001D28) -- Data:  00 90 00 F0 76 FB 30 B1 25 A0 42 F0 5F F9 00 F0 ...  returns 0x00 (0001ms, 2536ms total)
T0D74 014:624 JLINK_Step() >0x170 JTAG> -- Unmirror addr 0x00001D28 -- Read from flash cache (2 bytes @ 0x00001D28) >0x1D0 JTAG> -- Invalidate MA0 status -- Simulated  returns 0x00 (0008ms, 2544ms total)
T0D74 014:632 JLINK_ReadReg(R15 (PC))  returns 0x00001D2A (0000ms, 2544ms total)
T0D74 014:632 JLINK_ReadReg(XPSR)  returns 0x61000000 (0000ms, 2544ms total)
T0D74 014:632 JLINK_SetBPEx(Addr = 0x00001D2E, Type = 0xFFFFFFF2)
                JLINK_ReadMemHW(0x400FC040, 0x0004 Bytes, ...) >0x1D8 JTAG> -- Data:  01 00 00 00  returns 0x00 (0003ms, 0003ms total)
               -- MA0 is in flash -- Unmirror addr 0x00001D2E -- Unmirror addr 0x00001D24  returns 0x00000004 (0004ms, 2548ms total)
T0D74 014:636 JLINK_SetBPEx(Addr = 0x00001D24, Type = 0xFFFFFFF2) -- Unmirror addr 0x00001D24 -- Unmirror addr 0x00001D24  returns 0x00000005 (0000ms, 2548ms total)
T0D74 014:636 JLINK_Go() -- Unmirror addr 0x00001D2A -- Unmirror addr 0x00001D24 -- Unmirror addr 0x00001D2E -- Unmirror addr 0x00001D2A -- Read from flash cache (2 bytes @ 0x00001D2A) -- Unmirror addr 0x00001D2C -- Read from flash cache (2 bytes @ 0x00001D2C) -- Simulated -- Unmirror addr 0x0000241A -- Unmirror addr 0x00001D24 -- Unmirror addr 0x00001D2E -- Unmirror addr 0x0000241A >0x548 JTAG> -- Updating CM cache (64 bytes @ 0x00002400) -- Read from CM cache (2 bytes @ 0x0000241A) >0x200 JTAG>
 -- Simulated -- Unmirror addr 0x0000241C -- Unmirror addr 0x00001D24 -- Unmirror addr 0x00001D2E -- Unmirror addr 0x0000241C >0x548 JTAG> -- Updating CM cache (64 bytes @ 0x00002400) -- Read from CM cache (2 bytes @ 0x0000241C) -- Simulated -- Unmirror addr 0x0000241E -- Unmirror addr 0x00001D24 -- Unmirror addr 0x00001D2E -- Unmirror addr 0x0000241E -- Read from CM cache (2 bytes @ 0x0000241E) -- Simulated -- Unmirror addr 0x00002420 -- Unmirror addr 0x00001D24 -- Unmirror addr 0x00001D2E
 -- Unmirror addr 0x00002420 -- Read from CM cache (2 bytes @ 0x00002420) -- Unmirror addr 0x00002422 -- Read from CM cache (2 bytes @ 0x00002422) -- Simulated -- Unmirror addr 0x0001AC18 -- Unmirror addr 0x00001D24 -- Unmirror addr 0x00001D2E -- Unmirror addr 0x0001AC18 >0x548 JTAG> -- Updating CM cache (64 bytes @ 0x0001AC00) -- Read from CM cache (2 bytes @ 0x0001AC18) >0x2C0 JTAG> -- Simulated -- Unmirror addr 0x0001AC1A -- Unmirror addr 0x00001D24 -- Unmirror addr 0x00001D2E
 -- Unmirror addr 0x0001AC1A >0x548 JTAG> -- Updating CM cache (64 bytes @ 0x0001AC00) -- Read from CM cache (2 bytes @ 0x0001AC1A) -- Simulated -- Unmirror addr 0x0001AC1C -- Unmirror addr 0x00001D24 -- Unmirror addr 0x00001D2E -- Unmirror addr 0x0001AC1C -- Read from CM cache (2 bytes @ 0x0001AC1C) -- Simulated -- Unmirror addr 0x0001AC1E -- Unmirror addr 0x00001D24 -- Unmirror addr 0x00001D2E -- Unmirror addr 0x0001AC1E -- Read from CM cache (2 bytes @ 0x0001AC1E) -- Simulated
 -- Unmirror addr 0x0001AC20 -- Unmirror addr 0x00001D24 -- Unmirror addr 0x00001D2E -- Unmirror addr 0x0001AC20 -- Read from CM cache (2 bytes @ 0x0001AC20) -- Simulated -- Unmirror addr 0x0001AC22 -- Unmirror addr 0x00001D24 -- Unmirror addr 0x00001D2E -- Read from flash cache (4096 bytes @ 0x00001000) -- Programming range 0x00001000 - 0x00001FFF (  1 Sector, 4 KB) -- CPU clock frequency: 116891 kHz >0x2C8 JTAG> >0x1E8 JTAG> >0x1E8 JTAG> >0x1E8 JTAG> >0x1E8 JTAG> >0x1E8 JTAG> >0x1E8 JTAG> >0x1E8 JTAG>
 >0x1E8 JTAG> >0x1E8 JTAG> >0x1E8 JTAG> >0x218 JTAG> >0x218 JTAG> (0837ms, 3385ms total)
T0D74 015:573 JLINK_IsHalted() >0x170 JTAG> >0x1598 JTAG>
                JLINK_ReadMemHW(0x400FC040, 0x0004 Bytes, ...) >0x1D8 JTAG> -- Data:  01 00 00 00  returns 0x00 (0003ms, 0003ms total)
               -- MA0 is in flash -- Unmirror addr 0x00001D2E -- Unmirror addr 0x00001D24 -- Unmirror addr 0x00001D2E -- Unmirror addr 0x00001D2E -- Unmirror addr 0x00001D24 -- Unmirror addr 0x00001D2E  returns TRUE (0015ms, 3400ms total)
T0D74 015:588 JLINK_Halt()  returns 0x00 (0000ms, 3385ms total)
T0D74 015:588 JLINK_IsHalted() -- Unmirror addr 0x00001D2E -- Unmirror addr 0x00001D24 -- Unmirror addr 0x00001D2E  returns TRUE (0000ms, 3385ms total)
T0D74 015:588 JLINK_IsHalted() -- Unmirror addr 0x00001D2E -- Unmirror addr 0x00001D24 -- Unmirror addr 0x00001D2E  returns TRUE (0000ms, 3385ms total)
T0D74 015:588 JLINK_IsHalted() -- Unmirror addr 0x00001D2E -- Unmirror addr 0x00001D24 -- Unmirror addr 0x00001D2E  returns TRUE (0000ms, 3385ms total)
T0D74 015:588 JLINK_ReadReg(R15 (PC))  returns 0x00001D2E (0001ms, 3386ms total)
T0D74 015:589 JLINK_ReadReg(XPSR)  returns 0x61000000 (0000ms, 3386ms total)
T0D74 015:589 JLINK_ClrBPEx(BPHandle = 0x00000004)  returns 0x00 (0000ms, 3386ms total)
T0D74 015:589 JLINK_ClrBPEx(BPHandle = 0x00000005)  returns 0x00 (0000ms, 3386ms total)
T0D74 015:589 JLINK_ReadMemU32(0xE000ED30, 0x0001 Items, ...) >0x1D8 JTAG> -- Data:  0B 00 00 00  returns 0x01 (0003ms, 3389ms total)
T0D74 015:592 JLINK_ReadMemU32(0xE0001028, 0x0001 Items, ...) >0x1D8 JTAG> -- Data:  00 00 00 00  returns 0x01 (0003ms, 3392ms total)
T0D74 015:595 JLINK_ReadMemU32(0xE0001038, 0x0001 Items, ...) >0x1D8 JTAG> -- Data:  00 02 00 00  returns 0x01 (0003ms, 3395ms total)
T0D74 015:598 JLINK_ReadMemU32(0xE0001048, 0x0001 Items, ...) >0x1D8 JTAG> -- Data:  00 00 00 00  returns 0x01 (0003ms, 3398ms total)
T0D74 015:601 JLINK_ReadMemU32(0xE0001058, 0x0001 Items, ...) >0x1D8 JTAG> -- Data:  00 00 00 00  returns 0x01 (0003ms, 3401ms total)
T0D74 015:604 JLINK_Step() -- Unmirror addr 0x00001D2E -- Merging zombie BP[1]: 0xB130 @ 0x00001D2E -- Merging zombie BP[1]: 0xB130 @ 0x00001D2E -- Simulated  returns 0x00 (0000ms, 3401ms total)
T0D74 015:604 JLINK_ReadReg(R15 (PC))  returns 0x00001D3E (0000ms, 3401ms total)
T0D74 015:604 JLINK_ReadReg(XPSR)  returns 0x61000000 (0000ms, 3401ms total)
T0D74 015:606 JLINK_ReadReg(R0)  returns 0x00000000 (0000ms, 3401ms total)
T0D74 015:606 JLINK_ReadReg(R1)  returns 0xFFFFEE2D (0000ms, 3401ms total)
T0D74 015:606 JLINK_ReadReg(R2)  returns 0x100013E0 (0000ms, 3401ms total)
T0D74 015:606 JLINK_ReadReg(R3)  returns 0x00000020 (0000ms, 3401ms total)
T0D74 015:606 JLINK_ReadReg(R4)  returns 0x0000004D (0000ms, 3401ms total)
T0D74 015:606 JLINK_ReadReg(R5)  returns 0x0000004D (0000ms, 3401ms total)
T0D74 015:606 JLINK_ReadReg(R6)  returns 0xA5A5A5A5 (0000ms, 3401ms total)
T0D74 015:607 JLINK_ReadReg(R7)  returns 0xA5A5A5A5 (0001ms, 3403ms total)
T0D74 015:608 JLINK_ReadReg(R8)  returns 0xA5A5A5A5 (0000ms, 3403ms total)
T0D74 015:608 JLINK_ReadReg(R9)  returns 0xA5A5A5A5 (0000ms, 3403ms total)
T0D74 015:608 JLINK_ReadReg(R10)  returns 0xA5A5A5A5 (0000ms, 3403ms total)
T0D74 015:608 JLINK_ReadReg(R11)  returns 0xA5A5A5A5 (0000ms, 3403ms total)
T0D74 015:608 JLINK_ReadReg(R12)  returns 0x00000068 (0000ms, 3403ms total)
T0D74 015:608 JLINK_ReadReg(R13 (SP))  returns 0xA078EE98 (0000ms, 3403ms total)
T0D74 015:608 JLINK_ReadReg(R14)  returns 0x000023E9 (0000ms, 3403ms total)
T0D74 015:608 JLINK_ReadReg(R15 (PC))  returns 0x00001D3E (0001ms, 3404ms total)
T0D74 015:609 JLINK_ReadReg(XPSR)  returns 0x61000000 (0000ms, 3404ms total)
T0D74 015:609 JLINK_ReadReg(MSP)  returns 0x100011C0 (0000ms, 3404ms total)
T0D74 015:609 JLINK_ReadReg(PSP)  returns 0xA078EE98 (0000ms, 3404ms total)
T0D74 015:609 JLINK_ReadReg(CFBP)  returns 0x02000000 (0000ms, 3404ms total)
T03D8 015:617 JLINK_ReadMem (0xA078EE9C, 0x0004 Bytes, ...) >0x1D8 JTAG> -- Data:  79 80 01 00  returns 0x00 (0003ms, 3407ms total)
T03D8 015:620 JLINK_ReadMem (0xA078EEAC, 0x0004 Bytes, ...) >0x1D8 JTAG> -- Data:  00 00 00 00  returns 0x00 (0003ms, 3410ms total)
T03D8 015:623 JLINK_ReadMemU32(0xE0001004, 0x0001 Items, ...) >0x1D8 JTAG> -- Data:  A8 12 6B 09  returns 0x01 (0003ms, 3413ms total)
T0D74 018:385 JLINK_ReadMem (0x00001D3E, 0x0002 Bytes, ...) -- Unmirror addr 0x00001D3E -- Read from flash cache (2 bytes @ 0x00001D3E) -- Data:  27 A2  returns 0x00 (0002ms, 3415ms total)
T0D74 018:387 JLINK_ReadMem (0x00001D40, 0x003C Bytes, ...) -- Unmirror addr 0x00001D40 -- Read from flash cache (60 bytes @ 0x00001D40) -- Data:  00 21 68 46 0F F0 6E FD FE F7 3D FA FE F7 62 FA ...  returns 0x00 (0000ms, 3415ms total)
T0D74 018:387 JLINK_Step() >0x170 JTAG> -- Unmirror addr 0x00001D3E -- Read from flash cache (2 bytes @ 0x00001D3E) -- Simulated  returns 0x00 (0003ms, 3418ms total)
T0D74 018:390 JLINK_ReadReg(R15 (PC))  returns 0x00001D40 (0000ms, 3418ms total)
T0D74 018:390 JLINK_ReadReg(XPSR)  returns 0x61000000 (0000ms, 3418ms total)
T0D74 018:390 JLINK_Step() -- Unmirror addr 0x00001D40 -- Read from flash cache (2 bytes @ 0x00001D40) -- Simulated  returns 0x00 (0000ms, 3418ms total)
T0D74 018:390 JLINK_ReadReg(R15 (PC))  returns 0x00001D42 (0000ms, 3418ms total)
T0D74 018:390 JLINK_ReadReg(XPSR)  returns 0x61000000 (0000ms, 3418ms total)
T0D74 018:390 JLINK_Step() -- Unmirror addr 0x00001D42 -- Read from flash cache (2 bytes @ 0x00001D42) -- Simulated  returns 0x00 (0001ms, 3419ms total)
T0D74 018:391 JLINK_ReadReg(R15 (PC))  returns 0x00001D44 (0000ms, 3419ms total)
T0D74 018:391 JLINK_ReadReg(XPSR)  returns 0x61000000 (0000ms, 3419ms total)
T0D74 018:391 JLINK_SetBPEx(Addr = 0x00001D48, Type = 0xFFFFFFF2) -- Unmirror addr 0x00001D48 -- Unmirror addr 0x00001D24 -- Unmirror addr 0x00001D2E  returns 0x00000006 (0000ms, 3419ms total)
T0D74 018:391 JLINK_SetBPEx(Addr = 0x00001D24, Type = 0xFFFFFFF2) -- Unmirror addr 0x00001D24 -- Unmirror addr 0x00001D24  returns 0x00000007 (0001ms, 3420ms total)
T0D74 018:392 JLINK_Go() -- Unmirror addr 0x00001D44 -- Unmirror addr 0x00001D24 -- Unmirror addr 0x00001D2E -- Unmirror addr 0x00001D48 -- Unmirror addr 0x00001D44 -- Read from flash cache (2 bytes @ 0x00001D44) -- Unmirror addr 0x00001D46 -- Read from flash cache (2 bytes @ 0x00001D46) -- Simulated -- Unmirror addr 0x00011824 -- Unmirror addr 0x00001D24 -- Unmirror addr 0x00001D2E -- Unmirror addr 0x00001D48 -- Unmirror addr 0x00011824 >0x548 JTAG> -- Updating CM cache (64 bytes @ 0x00011800)
 -- Read from CM cache (2 bytes @ 0x00011824) >0x318 JTAG> -- Simulated -- Unmirror addr 0x00011826 -- Unmirror addr 0x00001D24 -- Unmirror addr 0x00001D2E -- Unmirror addr 0x00001D48 -- Unmirror addr 0x00011826 >0x548 JTAG> -- Updating CM cache (64 bytes @ 0x00011800) -- Read from CM cache (2 bytes @ 0x00011826) -- Simulated -- Unmirror addr 0x00011828 -- Unmirror addr 0x00001D24 -- Unmirror addr 0x00001D2E -- Unmirror addr 0x00001D48 -- Unmirror addr 0x00011828
 -- Read from CM cache (2 bytes @ 0x00011828) -- Simulated -- Unmirror addr 0x0001182A -- Unmirror addr 0x00001D24 -- Unmirror addr 0x00001D2E -- Unmirror addr 0x00001D48 -- Unmirror addr 0x0001182A -- Read from CM cache (2 bytes @ 0x0001182A) -- Simulated -- Unmirror addr 0x0001182C -- Unmirror addr 0x00001D24 -- Unmirror addr 0x00001D2E -- Unmirror addr 0x00001D48 -- Unmirror addr 0x0001182C -- Read from CM cache (2 bytes @ 0x0001182C) -- Unmirror addr 0x00011970 >0x548 JTAG>
 -- Updating CM cache (64 bytes @ 0x00011940) -- Read from CM cache (4 bytes @ 0x00011970) -- Simulated -- Unmirror addr 0x0001182E -- Unmirror addr 0x00001D24 -- Unmirror addr 0x00001D2E -- Unmirror addr 0x00001D48 -- Unmirror addr 0x0001182E -- Read from CM cache (2 bytes @ 0x0001182E) >0x1D8 JTAG> -- Simulated -- Unmirror addr 0x00011830 -- Unmirror addr 0x00001D24 -- Unmirror addr 0x00001D2E -- Unmirror addr 0x00001D48 -- Unmirror addr 0x00011830 -- Read from CM cache (2 bytes @ 0x00011830)
 >0x1D0 JTAG> -- Invalidate MA0 status -- Simulated
                JLINK_ReadMemHW(0x400FC040, 0x0004 Bytes, ...) >0x1D8 JTAG> -- Data:  01 00 00 00  returns 0x00 (0003ms, 0003ms total)
               -- MA0 is in flash -- Unmirror addr 0x00011832 -- Unmirror addr 0x00001D24 -- Unmirror addr 0x00001D2E -- Unmirror addr 0x00001D48 -- Unmirror addr 0x00011832 >0x548 JTAG> -- Updating CM cache (64 bytes @ 0x00011800) -- Read from CM cache (2 bytes @ 0x00011832) -- Unmirror addr 0x00011974 >0x548 JTAG> -- Updating CM cache (64 bytes @ 0x00011940) -- Read from CM cache (4 bytes @ 0x00011974) -- Simulated -- Unmirror addr 0x00011834 -- Unmirror addr 0x00001D24 -- Unmirror addr 0x00001D2E
 -- Unmirror addr 0x00001D48 -- Unmirror addr 0x00011834 -- Read from CM cache (2 bytes @ 0x00011834) >0x1D0 JTAG> -- Invalidate MA0 status -- Simulated
                JLINK_ReadMemHW(0x400FC040, 0x0004 Bytes, ...) >0x1D8 JTAG> -- Data:  01 00 00 00  returns 0x00 (0003ms, 0006ms total)
               -- MA0 is in flash -- Unmirror addr 0x00011836 -- Unmirror addr 0x00001D24 -- Unmirror addr 0x00001D2E -- Unmirror addr 0x00001D48 -- Read from flash cache (4096 bytes @ 0x00001000) -- Programming range 0x00001000 - 0x00001FFF (  1 Sector, 4 KB) -- CPU clock frequency: 116942 kHz >0x2C8 JTAG> >0x1E8 JTAG> >0x1E8 JTAG> >0x1E8 JTAG> >0x1E8 JTAG> >0x1E8 JTAG> >0x1E8 JTAG> >0x1E8 JTAG> >0x1E8 JTAG> >0x1E8 JTAG> >0x1E8 JTAG> >0x218 JTAG> >0x218 JTAG> (0837ms, 4257ms total)
T0D74 019:329 JLINK_IsHalted() >0x170 JTAG>  returns FALSE (0003ms, 4260ms total)
T0D74 019:432 JLINK_IsHalted() >0x170 JTAG>  returns FALSE (0003ms, 4260ms total)
T0D74 019:535 JLINK_IsHalted() >0x170 JTAG>  returns FALSE (0003ms, 4260ms total)
T0D74 019:638 JLINK_IsHalted() >0x170 JTAG>  returns FALSE (0003ms, 4260ms total)
T0D74 019:741 JLINK_IsHalted() >0x170 JTAG>  returns FALSE (0003ms, 4260ms total)
T0D74 019:844 JLINK_IsHalted() >0x170 JTAG>  returns FALSE (0003ms, 4260ms total)
T0D74 019:947 JLINK_IsHalted() >0x170 JTAG>  returns FALSE (0003ms, 4260ms total)
T0D74 020:050 JLINK_IsHalted() >0x170 JTAG>  returns FALSE (0003ms, 4260ms total)
T0D74 020:153 JLINK_IsHalted() >0x170 JTAG>  returns FALSE (0003ms, 4260ms total)
T0D74 020:256 JLINK_IsHalted() >0x170 JTAG> >0x1598 JTAG>
                JLINK_ReadMemHW(0x400FC040, 0x0004 Bytes, ...) >0x1D8 JTAG> -- Data:  01 00 00 00  returns 0x00 (0003ms, 0003ms total)
               -- MA0 is in flash -- Unmirror addr 0x00001D48 -- Unmirror addr 0x00001D24 -- Unmirror addr 0x00001D48 -- Unmirror addr 0x00001D48 -- Unmirror addr 0x00001D24 -- Unmirror addr 0x00001D48  returns TRUE (0014ms, 4271ms total)
T0D74 020:270 JLINK_Halt()  returns 0x00 (0000ms, 4257ms total)
T0D74 020:270 JLINK_IsHalted() -- Unmirror addr 0x00001D48 -- Unmirror addr 0x00001D24 -- Unmirror addr 0x00001D48  returns TRUE (0000ms, 4257ms total)
T0D74 020:270 JLINK_IsHalted() -- Unmirror addr 0x00001D48 -- Unmirror addr 0x00001D24 -- Unmirror addr 0x00001D48  returns TRUE (0000ms, 4257ms total)
T0D74 020:270 JLINK_IsHalted() -- Unmirror addr 0x00001D48 -- Unmirror addr 0x00001D24 -- Unmirror addr 0x00001D48  returns TRUE (0001ms, 4258ms total)
T0D74 020:271 JLINK_ReadReg(R15 (PC))  returns 0x00001D48 (0000ms, 4257ms total)
T0D74 020:271 JLINK_ReadReg(XPSR)  returns 0x61000000 (0000ms, 4257ms total)
T0D74 020:271 JLINK_ClrBPEx(BPHandle = 0x00000006)  returns 0x00 (0000ms, 4257ms total)
T0D74 020:271 JLINK_ClrBPEx(BPHandle = 0x00000007)  returns 0x00 (0000ms, 4257ms total)
T0D74 020:271 JLINK_ReadMemU32(0xE000ED30, 0x0001 Items, ...) >0x1D8 JTAG> -- Data:  0B 00 00 00  returns 0x01 (0003ms, 4260ms total)
T0D74 020:274 JLINK_ReadMemU32(0xE0001028, 0x0001 Items, ...) >0x1D8 JTAG> -- Data:  00 00 00 00  returns 0x01 (0003ms, 4263ms total)
T0D74 020:277 JLINK_ReadMemU32(0xE0001038, 0x0001 Items, ...) >0x1D8 JTAG> -- Data:  00 02 00 00  returns 0x01 (0003ms, 4266ms total)
T0D74 020:280 JLINK_ReadMemU32(0xE0001048, 0x0001 Items, ...) >0x1D8 JTAG> -- Data:  00 00 00 00  returns 0x01 (0003ms, 4269ms total)
T0D74 020:283 JLINK_ReadMemU32(0xE0001058, 0x0001 Items, ...) >0x1D8 JTAG> -- Data:  00 00 00 00  returns 0x01 (0003ms, 4272ms total)
T0D74 020:287 JLINK_ReadReg(R0)  returns 0x000007D0 (0000ms, 4272ms total)
T0D74 020:287 JLINK_ReadReg(R1)  returns 0x00000000 (0000ms, 4272ms total)
T0D74 020:287 JLINK_ReadReg(R2)  returns 0x00001DDC (0000ms, 4272ms total)
T0D74 020:287 JLINK_ReadReg(R3)  returns 0x00000022 (0000ms, 4272ms total)
T0D74 020:288 JLINK_ReadReg(R4)  returns 0x0000004D (0000ms, 4272ms total)
T0D74 020:288 JLINK_ReadReg(R5)  returns 0x0000004D (0000ms, 4272ms total)
T0D74 020:288 JLINK_ReadReg(R6)  returns 0xA5A5A5A5 (0000ms, 4272ms total)
T0D74 020:288 JLINK_ReadReg(R7)  returns 0xA5A5A5A5 (0000ms, 4272ms total)
T0D74 020:288 JLINK_ReadReg(R8)  returns 0xA5A5A5A5 (0000ms, 4272ms total)
T0D74 020:288 JLINK_ReadReg(R9)  returns 0xA5A5A5A5 (0000ms, 4272ms total)
T0D74 020:288 JLINK_ReadReg(R10)  returns 0xA5A5A5A5 (0000ms, 4272ms total)
T0D74 020:288 JLINK_ReadReg(R11)  returns 0xA5A5A5A5 (0000ms, 4272ms total)
T0D74 020:288 JLINK_ReadReg(R12)  returns 0x00000068 (0001ms, 4273ms total)
T0D74 020:289 JLINK_ReadReg(R13 (SP))  returns 0xA078EE98 (0000ms, 4273ms total)
T0D74 020:289 JLINK_ReadReg(R14)  returns 0x0001735F (0000ms, 4273ms total)
T0D74 020:289 JLINK_ReadReg(R15 (PC))  returns 0x00001D48 (0000ms, 4273ms total)
T0D74 020:289 JLINK_ReadReg(XPSR)  returns 0x61000000 (0000ms, 4273ms total)
T0D74 020:289 JLINK_ReadReg(MSP)  returns 0x100011C0 (0000ms, 4273ms total)
T0D74 020:289 JLINK_ReadReg(PSP)  returns 0xA078EE98 (0000ms, 4273ms total)
T0D74 020:289 JLINK_ReadReg(CFBP)  returns 0x02000000 (0000ms, 4273ms total)
T03D8 020:297 JLINK_ReadMem (0xA078EE9C, 0x0004 Bytes, ...) >0x1D8 JTAG> -- Data:  79 80 01 00  returns 0x00 (0003ms, 4276ms total)
T03D8 020:300 JLINK_ReadMem (0xA078EEAC, 0x0004 Bytes, ...) >0x1D8 JTAG> -- Data:  00 00 00 00  returns 0x00 (0003ms, 4279ms total)
T03D8 020:303 JLINK_ReadMemU32(0xE0001004, 0x0001 Items, ...) >0x1D8 JTAG> -- Data:  0F DF B6 12  returns 0x01 (0003ms, 4282ms total)
T03D8 020:310 JLINK_ReadMem (0x00001D48, 0x003C Bytes, ...) -- Unmirror addr 0x00001D48 -- Read from flash cache (60 bytes @ 0x00001D48) -- Merging zombie BP[1]: 0xF7FE @ 0x00001D48 -- Data:  FE F7 3D FA FE F7 62 FA 00 F0 C0 F8 03 F0 6E F9 ...  returns 0x00 (0000ms, 4282ms total)
T0D74 023:952 JLINK_SetBPEx(Addr = 0x00001D4C, Type = 0xFFFFFFF2) -- Unmirror addr 0x00001D4C -- Unmirror addr 0x00001D24 -- Unmirror addr 0x00001D48  returns 0x00000008 (0001ms, 4283ms total)
T0D74 023:954 JLINK_SetBPEx(Addr = 0x00001D24, Type = 0xFFFFFFF2) -- Unmirror addr 0x00001D24 -- Unmirror addr 0x00001D24  returns 0x00000009 (0000ms, 4284ms total)
T0D74 023:954 JLINK_Go() >0x170 JTAG> -- Unmirror addr 0x00001D48 -- Unmirror addr 0x00001D24 -- Unmirror addr 0x00001D48 -- Unmirror addr 0x00001D48 -- Merging zombie BP[1]: 0xF7FE @ 0x00001D48 -- Merging zombie BP[1]: 0xF7FE @ 0x00001D48 -- Unmirror addr 0x00001D4A -- Read from flash cache (2 bytes @ 0x00001D4A) -- Simulated -- Unmirror addr 0x000001C6 -- Unmirror addr 0x00001D24 -- Unmirror addr 0x00001D48 -- Unmirror addr 0x00001D4C -- Unmirror addr 0x000001C6 >0x548 JTAG>
 -- Updating CM cache (64 bytes @ 0x000001C0) -- Read from CM cache (2 bytes @ 0x000001C6) >0x2C0 JTAG> -- Simulated -- Unmirror addr 0x000001C8 -- Unmirror addr 0x00001D24 -- Unmirror addr 0x00001D48 -- Unmirror addr 0x00001D4C -- Unmirror addr 0x000001C8 >0x548 JTAG> -- Updating CM cache (64 bytes @ 0x000001C0) -- Read from CM cache (2 bytes @ 0x000001C8) -- Simulated -- Unmirror addr 0x000001CA -- Unmirror addr 0x00001D24 -- Unmirror addr 0x00001D48 -- Unmirror addr 0x00001D4C
 -- Unmirror addr 0x000001CA -- Read from CM cache (2 bytes @ 0x000001CA) -- Simulated -- Unmirror addr 0x000001CC -- Unmirror addr 0x00001D24 -- Unmirror addr 0x00001D48 -- Unmirror addr 0x00001D4C -- Unmirror addr 0x000001CC -- Read from CM cache (2 bytes @ 0x000001CC) -- Simulated -- Unmirror addr 0x000001CE -- Unmirror addr 0x00001D24 -- Unmirror addr 0x00001D48 -- Unmirror addr 0x00001D4C -- Unmirror addr 0x000001CE -- Read from CM cache (2 bytes @ 0x000001CE) -- Simulated
 -- Unmirror addr 0x000001D0 -- Unmirror addr 0x00001D24 -- Unmirror addr 0x00001D48 -- Unmirror addr 0x00001D4C -- Unmirror addr 0x000001D0 -- Read from CM cache (2 bytes @ 0x000001D0) -- Simulated -- Unmirror addr 0x000001D2 -- Unmirror addr 0x00001D24 -- Unmirror addr 0x00001D48 -- Unmirror addr 0x00001D4C -- Unmirror addr 0x000001D2 -- Read from CM cache (2 bytes @ 0x000001D2) -- Unmirror addr 0x000001D4 -- Read from CM cache (2 bytes @ 0x000001D4) -- Not simulated
 -- Read from flash cache (4096 bytes @ 0x00001000) -- Programming range 0x00001000 - 0x00001FFF (  1 Sector, 4 KB) -- CPU clock frequency: 117016 kHz >0x2C8 JTAG> >0x1E8 JTAG> >0x1E8 JTAG> >0x1E8 JTAG> >0x1E8 JTAG> >0x1E8 JTAG> >0x1E8 JTAG> >0x1E8 JTAG> >0x1E8 JTAG> >0x1E8 JTAG> >0x1E8 JTAG> >0x1E8 JTAG> >0x218 JTAG> >0x218 JTAG> (0825ms, 5109ms total)
T0D74 024:879 JLINK_IsHalted() >0x170 JTAG> >0x1598 JTAG>
                JLINK_ReadMemHW(0x400FC040, 0x0004 Bytes, ...) >0x1D8 JTAG> -- Data:  01 00 00 00  returns 0x00 (0003ms, 0003ms total)
               -- MA0 is in flash -- Unmirror addr 0x00001D4C -- Unmirror addr 0x00001D24 -- Unmirror addr 0x00001D4C -- Unmirror addr 0x00001D4C -- Unmirror addr 0x00001D24 -- Unmirror addr 0x00001D4C  returns TRUE (0014ms, 5123ms total)
T0D74 024:893 JLINK_Halt()  returns 0x00 (0000ms, 5109ms total)
T0D74 024:893 JLINK_IsHalted() -- Unmirror addr 0x00001D4C -- Unmirror addr 0x00001D24 -- Unmirror addr 0x00001D4C  returns TRUE (0000ms, 5109ms total)
T0D74 024:893 JLINK_IsHalted() -- Unmirror addr 0x00001D4C -- Unmirror addr 0x00001D24 -- Unmirror addr 0x00001D4C  returns TRUE (0000ms, 5109ms total)
T0D74 024:893 JLINK_IsHalted() -- Unmirror addr 0x00001D4C -- Unmirror addr 0x00001D24 -- Unmirror addr 0x00001D4C  returns TRUE (0001ms, 5110ms total)
T0D74 024:894 JLINK_ReadReg(R15 (PC))  returns 0x00001D4C (0000ms, 5109ms total)
T0D74 024:894 JLINK_ReadReg(XPSR)  returns 0x61000000 (0000ms, 5109ms total)
T0D74 024:894 JLINK_ClrBPEx(BPHandle = 0x00000008)  returns 0x00 (0000ms, 5109ms total)
T0D74 024:894 JLINK_ClrBPEx(BPHandle = 0x00000009)  returns 0x00 (0000ms, 5109ms total)
T0D74 024:894 JLINK_ReadMemU32(0xE000ED30, 0x0001 Items, ...) >0x1D8 JTAG> -- Data:  0B 00 00 00  returns 0x01 (0003ms, 5112ms total)
T0D74 024:897 JLINK_ReadMemU32(0xE0001028, 0x0001 Items, ...) >0x1D8 JTAG> -- Data:  00 00 00 00  returns 0x01 (0003ms, 5115ms total)
T0D74 024:900 JLINK_ReadMemU32(0xE0001038, 0x0001 Items, ...) >0x1D8 JTAG> -- Data:  00 02 00 00  returns 0x01 (0003ms, 5118ms total)
T0D74 024:903 JLINK_ReadMemU32(0xE0001048, 0x0001 Items, ...) >0x1D8 JTAG> -- Data:  00 00 00 00  returns 0x01 (0003ms, 5121ms total)
T0D74 024:906 JLINK_ReadMemU32(0xE0001058, 0x0001 Items, ...) >0x1D8 JTAG> -- Data:  00 00 00 00  returns 0x01 (0003ms, 5124ms total)
T0D74 024:910 JLINK_ReadReg(R0)  returns 0x00000000 (0000ms, 5124ms total)
T0D74 024:910 JLINK_ReadReg(R1)  returns 0x10000498 (0000ms, 5124ms total)
T0D74 024:910 JLINK_ReadReg(R2)  returns 0x00000003 (0000ms, 5124ms total)
T0D74 024:910 JLINK_ReadReg(R3)  returns 0x00000000 (0000ms, 5124ms total)
T0D74 024:910 JLINK_ReadReg(R4)  returns 0x0000004D (0000ms, 5124ms total)
T0D74 024:911 JLINK_ReadReg(R5)  returns 0x0000004D (0000ms, 5125ms total)
T0D74 024:911 JLINK_ReadReg(R6)  returns 0xA5A5A5A5 (0003ms, 5128ms total)
T0D74 024:914 JLINK_ReadReg(R7)  returns 0xA5A5A5A5 (0000ms, 5128ms total)
T0D74 024:914 JLINK_ReadReg(R8)  returns 0xA5A5A5A5 (0000ms, 5128ms total)
T0D74 024:914 JLINK_ReadReg(R9)  returns 0xA5A5A5A5 (0000ms, 5128ms total)
T0D74 024:914 JLINK_ReadReg(R10)  returns 0xA5A5A5A5 (0000ms, 5128ms total)
T0D74 024:914 JLINK_ReadReg(R11)  returns 0xA5A5A5A5 (0000ms, 5128ms total)
T0D74 024:914 JLINK_ReadReg(R12)  returns 0x00000068 (0001ms, 5129ms total)
T0D74 024:915 JLINK_ReadReg(R13 (SP))  returns 0xA078EE98 (0000ms, 5129ms total)
T0D74 024:915 JLINK_ReadReg(R14)  returns 0x0001735F (0000ms, 5129ms total)
T0D74 024:915 JLINK_ReadReg(R15 (PC))  returns 0x00001D4C (0000ms, 5129ms total)
T0D74 024:915 JLINK_ReadReg(XPSR)  returns 0x61000000 (0000ms, 5129ms total)
T0D74 024:915 JLINK_ReadReg(MSP)  returns 0x100011C0 (0000ms, 5129ms total)
T0D74 024:915 JLINK_ReadReg(PSP)  returns 0xA078EE98 (0000ms, 5129ms total)
T0D74 024:915 JLINK_ReadReg(CFBP)  returns 0x02000000 (0000ms, 5129ms total)
T03D8 024:922 JLINK_ReadMem (0xA078EE9C, 0x0004 Bytes, ...) >0x1D8 JTAG> -- Data:  79 80 01 00  returns 0x00 (0003ms, 5132ms total)
T03D8 024:925 JLINK_ReadMem (0xA078EEAC, 0x0004 Bytes, ...) >0x1D8 JTAG> -- Data:  00 00 00 00  returns 0x00 (0003ms, 5135ms total)
T03D8 024:928 JLINK_ReadMemU32(0xE0001004, 0x0001 Items, ...) >0x1D8 JTAG> -- Data:  CF E3 D7 14  returns 0x01 (0003ms, 5138ms total)
T03D8 024:935 JLINK_ReadMem (0x00001D4C, 0x003C Bytes, ...) -- Unmirror addr 0x00001D4C -- Read from flash cache (60 bytes @ 0x00001D4C) -- Merging zombie BP[1]: 0xF7FE @ 0x00001D4C -- Data:  FE F7 62 FA 00 F0 C0 F8 03 F0 6E F9 00 20 02 F0 ...  returns 0x00 (0000ms, 5138ms total)
T0D74 025:816 JLINK_SetBPEx(Addr = 0x00001D50, Type = 0xFFFFFFF2) -- Unmirror addr 0x00001D50 -- Unmirror addr 0x00001D24 -- Unmirror addr 0x00001D4C  returns 0x0000000A (0002ms, 5140ms total)
T0D74 025:818 JLINK_SetBPEx(Addr = 0x00001D24, Type = 0xFFFFFFF2) -- Unmirror addr 0x00001D24 -- Unmirror addr 0x00001D24  returns 0x0000000B (0001ms, 5141ms total)
T0D74 025:819 JLINK_Go() >0x170 JTAG> -- Unmirror addr 0x00001D4C -- Unmirror addr 0x00001D24 -- Unmirror addr 0x00001D4C -- Unmirror addr 0x00001D4C -- Merging zombie BP[1]: 0xF7FE @ 0x00001D4C -- Merging zombie BP[1]: 0xF7FE @ 0x00001D4C -- Unmirror addr 0x00001D4E -- Read from flash cache (2 bytes @ 0x00001D4E) -- Simulated -- Unmirror addr 0x00000214 -- Unmirror addr 0x00001D24 -- Unmirror addr 0x00001D4C -- Unmirror addr 0x00001D50 -- Unmirror addr 0x00000214 >0x548 JTAG>
